# HZ S RI R 50
10110000 0.994550912 -0.078602184 0.002616717 0.051145472 0 0 0 0
10110010 0.994598464 -0.078560112 0.002608351 0.05112148 0 0 0 0
10110020 0.994563072 -0.078608448 0.002607407 0.051154428 0 0 0 0
10110030 0.994519552 -0.078584112 0.002621999 0.051128928 0 0 0 0
10110040 0.994552128 -0.078575448 0.002585639 0.05115058 0 0 0 0
10110050 0.994567872 -0.078612576 0.002615172 0.051135216 0 0 0 0
10110060 0.994510016 -0.078655664 0.002630496 0.051155952 0 0 0 0
10110070 0.994474624 -0.078654184 0.002595916 0.05116658 0 0 0 0
10110080 0.994525888 -0.078708464 0.00260216 0.05120914 0 0 0 0
10110090 0.99457568 -0.078590056 0.002613768 0.051186944 0 0 0 0
10110100 0.994535616 -0.07863924 0.00261312 0.051179736 0 0 0 0
10110110 0.994571392 -0.0786396 0.002639572 0.051242556 0 0 0 0
10110120 0.994509184 -0.07863776 0.002607894 0.051218312 0 0 0 0
10110130 0.99454176 -0.078715616 0.002602856 0.051245076 0 0 0 0
10110140 0.99449792 -0.078721416 0.002603075 0.051248924 0 0 0 0
10110150 0.99446368 -0.078703696 0.002630265 0.051265868 0 0 0 0
10110160 0.994479744 -0.078679216 0.002644212 0.051276716 0 0 0 0
10110170 0.994515648 -0.078749824 0.002634682 0.051286076 0 0 0 0
10110180 0.99456192 -0.078668992 0.002672636 0.051302568 0 0 0 0
10110190 0.994548672 -0.078721104 0.002630328 0.051301196 0 0 0 0
10110200 0.9945136 -0.078769384 0.002629989 0.051279784 0 0 0 0
10110210 0.994516928 -0.078763704 0.002660716 0.051295892 0 0 0 0
10110220 0.994540544 -0.078812888 0.002658111 0.051291424 0 0 0 0
10110230 0.99443712 -0.078794504 0.002633947 0.051335276 0 0 0 0
10110240 0.9944736 -0.078777032 0.002634488 0.051334684 0 0 0 0
10110250 0.994523072 -0.078826632 0.002618095 0.051331384 0 0 0 0
10110260 0.994492288 -0.078761088 0.002648381 0.051353572 0 0 0 0
10110270 0.994513728 -0.078860808 0.002642626 0.051343392 0 0 0 0
10110280 0.994479232 -0.078837776 0.002636644 0.05135904 0 0 0 0
10110290 0.994470784 -0.078864264 0.002634379 0.051353436 0 0 0 0
10110300 0.994478144 -0.078805232 0.00268617 0.05139114 0 0 0 0
10110310 0.994424896 -0.078862144 0.002622117 0.051417288 0 0 0 0
10110320 0.994483392 -0.078874992 0.002640695 0.0514193 0 0 0 0
10110330 0.994504128 -0.078890528 0.002642326 0.051388836 0 0 0 0
10110340 0.994516736 -0.078880784 0.002641004 0.051455068 0 0 0 0
10110350 0.994456768 -0.07894344 0.002646619 0.051438452 0 0 0 0
10110360 0.994475584 -0.078926168 0.00266081 0.051456648 0 0 0 0
10110370 0.994454592 -0.07891336 0.002642365 0.051452452 0 0 0 0
10110380 0.994508608 -0.078952744 0.002632113 0.051460424 0 0 0 0
10110390 0.994471168 -0.078928936 0.00266753 0.05148652 0 0 0 0
10110400 0.994459008 -0.078965128 0.002639164 0.051518688 0 0 0 0
10110410 0.994476608 -0.078986384 0.002621497 0.051504876 0 0 0 0
10110420 0.994500224 -0.079000016 0.002663581 0.051512348 0 0 0 0
10110430 0.994431168 -0.079025384 0.002641117 0.051508356 0 0 0 0
10110440 0.994421696 -0.079007192 0.002646771 0.051550308 0 0 0 0
10110450 0.994450688 -0.079004544 0.002626535 0.051521364 0 0 0 0
10110460 0.994493312 -0.07903212 0.002601939 0.051522536 0 0 0 0
10110470 0.994460224 -0.079001136 0.002663745 0.0515072 0 0 0 0
10110480 0.994472192 -0.079100928 0.002659093 0.05156736 0 0 0 0
10110490 0.994447808 -0.079078096 0.002671046 0.051564904 0 0 0 0
10110500 0.99444256 -0.079089 0.002614949 0.051576392 0 0 0 0
10110510 0.994458432 -0.079107776 0.002652214 0.05158308 0 0 0 0
10110520 0.994442176 -0.079141584 0.002629399 0.0515909 0 0 0 0
10110530 0.994468032 -0.079092536 0.00265257 0.051609588 0 0 0 0
10110540 0.994481024 -0.079170296 0.00267442 0.051610692 0 0 0 0
10110550 0.994429376 -0.079165368 0.002659279 0.051630768 0 0 0 0
10110560 0.994479744 -0.079151176 0.002642575 0.051628028 0 0 0 0
10110570 0.994427456 -0.079160664 0.002635791 0.051631732 0 0 0 0
10110580 0.994455488 -0.079184424 0.002664112 0.05164866 0 0 0 0
10110590 0.994420416 -0.079136992 0.002706743 0.051667 0 0 0 0
10110600 0.994448512 -0.079166856 0.002656454 0.051655472 0 0 0 0
10110610 0.9944256 -0.07922684 0.002641428 0.051668144 0 0 0 0
10110620 0.994441408 -0.07920844 0.00267366 0.051654828 0 0 0 0
10110630 0.994467328 -0.079251032 0.002686096 0.05168838 0 0 0 0
10110640 0.9944512 -0.079224624 0.002674766 0.051663528 0 0 0 0
10110650 0.994458368 -0.07925864 0.002677835 0.051704108 0 0 0 0
10110660 0.994405952 -0.07930192 0.002663417 0.051695852 0 0 0 0
10110670 0.994447552 -0.079304512 0.002681278 0.051695608 0 0 0 0
10110680 0.994372864 -0.079292456 0.002691722 0.051724384 0 0 0 0
10110690 0.9944464 -0.079308392 0.002698434 0.051729876 0 0 0 0
10110700 0.994399232 -0.079314776 0.002699473 0.051764328 0 0 0 0
10110710 0.994410112 -0.079330376 0.002674086 0.051741244 0 0 0 0
10110720 0.994412608 -0.07928884 0.002704491 0.05173504 0 0 0 0
10110730 0.994387648 -0.079337368 0.002695532 0.051760796 0 0 0 0
10110740 0.994393856 -0.079384528 0.002715916 0.051749996 0 0 0 0
10110750 0.994414336 -0.07936644 0.002712767 0.051780552 0 0 0 0
10110760 0.994425984 -0.079408816 0.002683102 0.051800976 0 0 0 0
10110770 0.994384 -0.079395496 0.002673218 0.051832656 0 0 0 0
10110780 0.99438624 -0.079350624 0.002711817 0.051812792 0 0 0 0
10110790 0.994305728 -0.079434672 0.00268051 0.05182022 0 0 0 0
10110800 0.994358592 -0.079429056 0.002730268 0.051852544 0 0 0 0
10110810 0.994391552 -0.079460672 0.002727976 0.051826368 0 0 0 0
10110820 0.994377472 -0.079392808 0.002684733 0.051836864 0 0 0 0
10110830 0.994382272 -0.079432112 0.002697989 0.051799076 0 0 0 0
10110840 0.994374976 -0.079439616 0.002696384 0.051875688 0 0 0 0
10110850 0.99434976 -0.07948492 0.002697341 0.05189334 0 0 0 0
10110860 0.994406016 -0.079508504 0.002696782 0.05187186 0 0 0 0
10110870 0.99436864 -0.079506432 0.002699731 0.051882936 0 0 0 0
10110880 0.994421632 -0.079566392 0.002692591 0.0519269 0 0 0 0
10110890 0.994413632 -0.07956796 0.002696874 0.051890968 0 0 0 0
10110900 0.994405632 -0.079569592 0.002689455 0.051904852 0 0 0 0
10110910 0.99437984 -0.079527864 0.002696156 0.051930472 0 0 0 0
10110920 0.994411904 -0.07951856 0.002685453 0.051939376 0 0 0 0
10110930 0.994450176 -0.079600536 0.002703815 0.051960952 0 0 0 0
10110940 0.994374784 -0.079556168 0.002669286 0.0519458 0 0 0 0
10110950 0.994366784 -0.079600232 0.002721427 0.051983948 0 0 0 0
10110960 0.994395456 -0.079561256 0.002673732 0.05199376 0 0 0 0
10110970 0.994328064 -0.079597056 0.002706929 0.052001692 0 0 0 0
10110980 0.994384704 -0.079614344 0.002708296 0.05202182 0 0 0 0
10110990 0.994350528 -0.079643232 0.002703163 0.052005408 0 0 0 0
10111000 0.99434784 -0.079658888 0.0027075 0.052003576 0 0 0 0
10111010 0.994378432 -0.079571128 0.002736241 0.052019392 0 0 0 0
10111020 0.994377792 -0.079627448 0.002704097 0.052013524 0 0 0 0
10111030 0.994350272 -0.079608536 0.002701271 0.052001836 0 0 0 0
10111040 0.994365184 -0.079598648 0.002715003 0.052062384 0 0 0 0
10111050 0.994357376 -0.079706304 0.002727874 0.05206412 0 0 0 0
10111060 0.994460288 -0.079687912 0.002733773 0.052066008 0 0 0 0
10111070 0.994347648 -0.07968868 0.002715637 0.052075212 0 0 0 0
10111080 0.9943728 -0.079759448 0.002717957 0.052076236 0 0 0 0
10111090 0.994365888 -0.07972816 0.002720164 0.052103068 0 0 0 0
10111100 0.994347584 -0.079749896 0.002736968 0.052107524 0 0 0 0
10111110 0.99434176 -0.07973544 0.002718638 0.05214926 0 0 0 0
10111120 0.994330624 -0.079765704 0.002704512 0.052139972 0 0 0 0
10111130 0.994367232 -0.079803968 0.002720978 0.052125992 0 0 0 0
10111140 0.99439584 -0.07979416 0.002765582 0.052168384 0 0 0 0
10111150 0.994379712 -0.07977764 0.002749866 0.05215742 0 0 0 0
10111160 0.994352704 -0.079772792 0.00275146 0.052161924 0 0 0 0
10111170 0.9943712 -0.079831248 0.002733692 0.05218648 0 0 0 0
10111180 0.994350016 -0.079851096 0.002736427 0.052174564 0 0 0 0
10111190 0.99438752 -0.079858712 0.002717685 0.052190116 0 0 0 0
10111200 0.994391872 -0.079859872 0.002743248 0.052203648 0 0 0 0
10111210 0.994436352 -0.07984216 0.002727867 0.052228468 0 0 0 0
10111220 0.994419904 -0.079893968 0.002748293 0.052210404 0 0 0 0
10111230 0.994422464 -0.07991132 0.002750602 0.052230528 0 0 0 0
10111240 0.99429888 -0.079878512 0.002733586 0.052239304 0 0 0 0
10111250 0.994379136 -0.07989932 0.002773121 0.052263796 0 0 0 0
10111260 0.9943776 -0.079888888 0.002739058 0.052263192 0 0 0 0
10111270 0.994336192 -0.079937264 0.002768309 0.052306232 0 0 0 0
10111280 0.994317312 -0.07990688 0.002739178 0.05230982 0 0 0 0
10111290 0.994324096 -0.079984512 0.002755311 0.052316796 0 0 0 0
10111300 0.994392256 -0.079997048 0.002754839 0.052285556 0 0 0 0
10111310 0.99432704 -0.07995588 0.002778402 0.05235438 0 0 0 0
10111320 0.994341696 -0.080035328 0.002735115 0.052326208 0 0 0 0
10111330 0.994400512 -0.080026048 0.002761367 0.052371288 0 0 0 0
10111340 0.99429856 -0.080032584 0.00276569 0.052361976 0 0 0 0
10111350 0.994338816 -0.080058904 0.002759985 0.052349988 0 0 0 0
10111360 0.994284352 -0.080085808 0.002753072 0.052360076 0 0 0 0
10111370 0.994292864 -0.080010064 0.002738462 0.052370576 0 0 0 0
10111380 0.994305344 -0.08005428 0.002768598 0.052375632 0 0 0 0
10111390 0.99435872 -0.080065696 0.002758412 0.052437988 0 0 0 0
10111400 0.994294336 -0.08011728 0.002735798 0.05240246 0 0 0 0
10111410 0.99434464 -0.080109992 0.002764228 0.052453244 0 0 0 0
10111420 0.994299392 -0.080144664 0.002749071 0.052415096 0 0 0 0
10111430 0.994287424 -0.080175112 0.002783251 0.052482948 0 0 0 0
10111440 0.994309696 -0.080113176 0.002779684 0.052474112 0 0 0 0
10111450 0.994315456 -0.080097032 0.002767235 0.052465496 0 0 0 0
10111460 0.994278016 -0.080178744 0.002771264 0.052466164 0 0 0 0
10111470 0.994266304 -0.080196632 0.002770942 0.052513508 0 0 0 0
10111480 0.99427968 -0.080243856 0.00278301 0.052503744 0 0 0 0
10111490 0.994285312 -0.080196912 0.002792509 0.052517112 0 0 0 0
10111500 0.994346752 -0.080192528 0.002790844 0.052540212 0 0 0 0
10111510 0.99431104 -0.080251744 0.002779335 0.052565708 0 0 0 0
10111520 0.994322624 -0.080242848 0.002780468 0.05252572 0 0 0 0
10111530 0.994266432 -0.080252608 0.002806684 0.052564092 0 0 0 0
10111540 0.994339968 -0.080257944 0.002783379 0.05259194 0 0 0 0
10111550 0.994287296 -0.08020872 0.002757809 0.052600524 0 0 0 0
10111560 0.994239552 -0.080284512 0.002788842 0.052566948 0 0 0 0
10111570 0.994275136 -0.080288288 0.002805082 0.052593364 0 0 0 0
10111580 0.994289984 -0.080314304 0.002758454 0.0526221 0 0 0 0
10111590 0.99429728 -0.080277712 0.002807435 0.052633884 0 0 0 0
10111600 0.994349184 -0.080339128 0.002811073 0.052622884 0 0 0 0
10111610 0.994295616 -0.080355952 0.002805354 0.052633872 0 0 0 0
10111620 0.994178688 -0.080355464 0.002796078 0.052651528 0 0 0 0
10111630 0.994240064 -0.0804214 0.002801056 0.0526753 0 0 0 0
10111640 0.994268352 -0.080334448 0.002794874 0.052706088 0 0 0 0
10111650 0.99426272 -0.08037592 0.002779559 0.052655444 0 0 0 0
10111660 0.99429664 -0.080380648 0.002781996 0.05270298 0 0 0 0
10111670 0.994290432 -0.080362864 0.00280793 0.052705552 0 0 0 0
10111680 0.994224448 -0.080426688 0.002831608 0.052712768 0 0 0 0
10111690 0.99426976 -0.080415472 0.002845766 0.052743076 0 0 0 0
10111700 0.994300736 -0.080461296 0.002806862 0.052723636 0 0 0 0
10111710 0.994229696 -0.080441824 0.002799871 0.052713444 0 0 0 0
10111720 0.99424512 -0.080421072 0.00279895 0.052783436 0 0 0 0
10111730 0.994211968 -0.080406576 0.002816314 0.052766072 0 0 0 0
10111740 0.994244608 -0.080465472 0.002842923 0.052758032 0 0 0 0
10111750 0.994235904 -0.080443608 0.002849728 0.0528307 0 0 0 0
10111760 0.99426144 -0.0804568 0.002795328 0.052795788 0 0 0 0
10111770 0.994231168 -0.080446056 0.002871737 0.052810684 0 0 0 0
10111780 0.994218752 -0.080515504 0.002822913 0.052787608 0 0 0 0
10111790 0.994216064 -0.080544232 0.002799179 0.052809368 0 0 0 0
10111800 0.994237888 -0.080502184 0.002842285 0.052813476 0 0 0 0
10111810 0.9942272 -0.080515328 0.002810588 0.052840728 0 0 0 0
10111820 0.99425536 -0.080542624 0.002821436 0.052852692 0 0 0 0
10111830 0.994232512 -0.0805422 0.00283957 0.052876304 0 0 0 0
10111840 0.994161536 -0.080491056 0.002846477 0.052877124 0 0 0 0
10111850 0.99417728 -0.080577272 0.002815189 0.05288812 0 0 0 0
10111860 0.99418304 -0.08059836 0.002824745 0.0528882 0 0 0 0
10111870 0.99421952 -0.08062852 0.002836412 0.052937368 0 0 0 0
10111880 0.994211968 -0.0806048 0.002843242 0.052948576 0 0 0 0
10111890 0.994211328 -0.080599088 0.002837009 0.05294674 0 0 0 0
10111900 0.994195264 -0.080624936 0.002869063 0.052900564 0 0 0 0
10111910 0.994247104 -0.080596888 0.002847815 0.052946416 0 0 0 0
10111920 0.994181568 -0.080615152 0.002834442 0.052958092 0 0 0 0
10111930 0.99417344 -0.080603984 0.00283519 0.052951112 0 0 0 0
10111940 0.994161024 -0.080656232 0.002870103 0.05300076 0 0 0 0
10111950 0.994184768 -0.080695752 0.002852969 0.052994336 0 0 0 0
10111960 0.994144768 -0.080673384 0.002847661 0.052981292 0 0 0 0
10111970 0.994123648 -0.08072764 0.002854899 0.053010368 0 0 0 0
10111980 0.994117888 -0.080748408 0.002863529 0.053026796 0 0 0 0
10111990 0.994181184 -0.080752328 0.002884998 0.053012444 0 0 0 0
10112000 0.994153792 -0.080777712 0.002841069 0.053033024 0 0 0 0
10112010 0.994144896 -0.080737656 0.002829041 0.053057876 0 0 0 0
10112020 0.994153472 -0.080719216 0.002835707 0.053052308 0 0 0 0
10112030 0.994188608 -0.080735968 0.002863757 0.053074304 0 0 0 0
10112040 0.99414304 -0.080747152 0.002875876 0.053085616 0 0 0 0
10112050 0.994145536 -0.080809136 0.002868051 0.0530846 0 0 0 0
10112060 0.994156736 -0.080820632 0.002886452 0.053126348 0 0 0 0
10112070 0.994160064 -0.08080148 0.002863435 0.053122016 0 0 0 0
10112080 0.994135104 -0.080855784 0.002856263 0.053154976 0 0 0 0
10112090 0.9941488 -0.080904712 0.002862364 0.053156532 0 0 0 0
10112100 0.994135872 -0.080911256 0.002851096 0.053157236 0 0 0 0
10112110 0.994163584 -0.0808276 0.002889521 0.053187216 0 0 0 0
10112120 0.9940864 -0.080888352 0.002840393 0.053185136 0 0 0 0
10112130 0.994106432 -0.080917152 0.00286666 0.053165576 0 0 0 0
10112140 0.994084928 -0.0808944 0.002840656 0.053217488 0 0 0 0
10112150 0.994199104 -0.08090096 0.002893019 0.053190784 0 0 0 0
10112160 0.994136384 -0.080934656 0.002846456 0.053210312 0 0 0 0
10112170 0.99412736 -0.081013928 0.002877324 0.05321592 0 0 0 0
10112180 0.994094528 -0.080974968 0.002844736 0.05324138 0 0 0 0
10112190 0.99409888 -0.080986176 0.002830735 0.053286044 0 0 0 0
10112200 0.994157184 -0.080989424 0.002908193 0.053262788 0 0 0 0
10112210 0.994131648 -0.081036288 0.002881847 0.053290552 0 0 0 0
10112220 0.994163648 -0.081047128 0.002872899 0.053294104 0 0 0 0
10112230 0.994169728 -0.080995128 0.002849417 0.05331118 0 0 0 0
10112240 0.994144064 -0.081020784 0.002853786 0.053256292 0 0 0 0
10112250 0.994108288 -0.081076488 0.002884096 0.053313004 0 0 0 0
10112260 0.994169536 -0.081038792 0.002887359 0.053357064 0 0 0 0
10112270 0.9940944 -0.081060648 0.002903549 0.053364216 0 0 0 0
10112280 0.994152384 -0.081101824 0.002859027 0.053362208 0 0 0 0
10112290 0.994085568 -0.081147808 0.002883018 0.053370628 0 0 0 0
10112300 0.994135872 -0.081091456 0.002917888 0.053364088 0 0 0 0
10112310 0.994058816 -0.08114888 0.002884534 0.053344728 0 0 0 0
10112320 0.994079168 -0.081145568 0.002904195 0.053370204 0 0 0 0
10112330 0.994104896 -0.081170368 0.002888426 0.053435296 0 0 0 0
10112340 0.99404864 -0.081155704 0.002892497 0.053393496 0 0 0 0
10112350 0.99414048 -0.081214224 0.00288584 0.053421572 0 0 0 0
10112360 0.994121216 -0.081226008 0.002875963 0.05344978 0 0 0 0
10112370 0.99407456 -0.0812302 0.00291302 0.053454596 0 0 0 0
10112380 0.994067264 -0.081220688 0.002931788 0.053453888 0 0 0 0
10112390 0.994128 -0.081257184 0.002913611 0.053480372 0 0 0 0
10112400 0.994156608 -0.081262976 0.002910636 0.05347536 0 0 0 0
10112410 0.994132416 -0.08127404 0.002931264 0.053483388 0 0 0 0
10112420 0.994082048 -0.081279504 0.002907344 0.053477464 0 0 0 0
10112430 0.9941392 -0.081278064 0.002912932 0.053503844 0 0 0 0
10112440 0.994107712 -0.081267 0.002911833 0.053515696 0 0 0 0
10112450 0.994036032 -0.081329608 0.002923299 0.053538824 0 0 0 0
10112460 0.994132224 -0.08136816 0.002923011 0.053558772 0 0 0 0
10112470 0.994060864 -0.081354432 0.002980969 0.05357842 0 0 0 0
10112480 0.99411008 -0.08136012 0.002918253 0.05358442 0 0 0 0
10112490 0.994038336 -0.081367872 0.002932937 0.053588132 0 0 0 0
10112500 0.994066112 -0.081395576 0.002954152 0.053605084 0 0 0 0
10112510 0.994097664 -0.081424104 0.002920446 0.053621356 0 0 0 0
10112520 0.994116608 -0.081356632 0.002913179 0.053639128 0 0 0 0
10112530 0.994070272 -0.081482648 0.002923258 0.053652304 0 0 0 0
10112540 0.994057728 -0.081486384 0.002928589 0.053658764 0 0 0 0
10112550 0.99405216 -0.081429208 0.002918549 0.053653656 0 0 0 0
10112560 0.994047744 -0.081485968 0.00296202 0.053694412 0 0 0 0
10112570 0.994037376 -0.081442616 0.002929544 0.053677784 0 0 0 0
10112580 0.994045696 -0.081481528 0.002912193 0.053695696 0 0 0 0
10112590 0.994053184 -0.081495816 0.002941596 0.053689512 0 0 0 0
10112600 0.994098496 -0.081514 0.002949122 0.053727384 0 0 0 0
10112610 0.994006208 -0.081550528 0.002955564 0.053725588 0 0 0 0
10112620 0.994053824 -0.081559344 0.002960378 0.053729776 0 0 0 0
10112630 0.993970176 -0.081610728 0.002950684 0.053743992 0 0 0 0
10112640 0.994062016 -0.081596704 0.002952624 0.053775732 0 0 0 0
10112650 0.994101056 -0.081542864 0.002951661 0.0537899 0 0 0 0
10112660 0.994027392 -0.081602176 0.002973222 0.053792336 0 0 0 0
10112670 0.994030592 -0.081637016 0.002968645 0.053763428 0 0 0 0
10112680 0.99407968 -0.081685072 0.002945227 0.053818628 0 0 0 0
10112690 0.994032832 -0.081614648 0.002946526 0.05384082 0 0 0 0
10112700 0.993952256 -0.081671768 0.002975148 0.053836276 0 0 0 0
10112710 0.994049856 -0.081670952 0.002951098 0.053865644 0 0 0 0
10112720 0.99401152 -0.08165168 0.00297225 0.053866968 0 0 0 0
10112730 0.994007936 -0.081658952 0.002963791 0.053862864 0 0 0 0
10112740 0.994035072 -0.081706992 0.002996273 0.053873868 0 0 0 0
10112750 0.994016768 -0.081740208 0.002953719 0.053916812 0 0 0 0
10112760 0.99405536 -0.081811104 0.002993785 0.053911428 0 0 0 0
10112770 0.994013888 -0.081788392 0.002971276 0.053945788 0 0 0 0
10112780 0.994046528 -0.08173996 0.002983878 0.05394278 0 0 0 0
10112790 0.994008896 -0.081807208 0.002966113 0.053970004 0 0 0 0
10112800 0.994002496 -0.081841424 0.002959477 0.053918268 0 0 0 0
10112810 0.9939728 -0.0818102 0.00299298 0.053954908 0 0 0 0
10112820 0.994004096 -0.081792368 0.002958745 0.053980392 0 0 0 0
10112830 0.994024768 -0.081849152 0.002961603 0.054006944 0 0 0 0
10112840 0.994018496 -0.081859928 0.002985235 0.05399174 0 0 0 0
10112850 0.993981824 -0.081830384 0.003001032 0.054028 0 0 0 0
10112860 0.993947456 -0.081939776 0.002953749 0.054021244 0 0 0 0
10112870 0.9939808 -0.081910656 0.002978752 0.054032924 0 0 0 0
10112880 0.993991552 -0.081882688 0.002938267 0.054096824 0 0 0 0
10112890 0.994068736 -0.08193376 0.002961901 0.05409064 0 0 0 0
10112900 0.993994304 -0.08189864 0.002974368 0.054107844 0 0 0 0
10112910 0.994010496 -0.081944072 0.002983466 0.054096848 0 0 0 0
10112920 0.99395136 -0.08195508 0.002982105 0.054109212 0 0 0 0
10112930 0.993986816 -0.081980768 0.002980007 0.05406808 0 0 0 0
10112940 0.99395776 -0.081882648 0.002996767 0.054127332 0 0 0 0
10112950 0.993953472 -0.081940752 0.002955793 0.054125228 0 0 0 0
10112960 0.993947776 -0.081996192 0.002971753 0.05412556 0 0 0 0
10112970 0.993998272 -0.082032344 0.002984203 0.054158256 0 0 0 0
10112980 0.993952576 -0.082025472 0.002962602 0.054183696 0 0 0 0
10112990 0.993977088 -0.08198152 0.00297629 0.054208056 0 0 0 0
10113000 0.99392192 -0.082054144 0.002947799 0.054179496 0 0 0 0
10113010 0.99395392 -0.082064472 0.002971966 0.054190344 0 0 0 0
10113020 0.993978496 -0.082052784 0.00298171 0.054226288 0 0 0 0
10113030 0.993978176 -0.082054544 0.002961417 0.054240848 0 0 0 0
10113040 0.993973824 -0.082087816 0.002984104 0.054227132 0 0 0 0
10113050 0.993944256 -0.082137792 0.002998596 0.054244728 0 0 0 0
